
**** 05/21/25 10:35:12 ***** PSpice 24.1.0 (17 April 2025) **** ID# 0 ********

 ** Profile: "SCHEMATIC1-simualareac"  [ c:\users\rares\appdata\roaming\spb_data\cdssetup\workspace\projects\proiectcad\proiectcad-ps


 ****     CIRCUIT DESCRIPTION


******************************************************************************




** Creating circuit file "simualareac.cir" 
** WARNING: THIS AUTOMATICALLY GENERATED FILE MAY BE OVERWRITTEN BY SUBSEQUENT SIMULATIONS

*Libraries: 
* Profile Libraries :
* Local Libraries :
* From [PSPICE NETLIST] section of C:\Users\rares\AppData\Roaming\SPB_Data\cdssetup\OrCAD_PSpice\24.1.0\PSpice.ini file:
.lib "nom.lib" 

*Analysis directives: 
.AC DEC 100 1 10MEg
.OPTIONS ADVCONV
.PROBE64 V(alias(*)) I(alias(*)) W(alias(*)) D(alias(*)) NOISE(alias(*)) 
.INC "..\SCHEMATIC1.net" 



**** INCLUDING SCHEMATIC1.net ****
* source PROIECTCAD
V_V2         VCC 0 15
V_V3         -VCC 0 -15
V_V4         N00912 0  AC 1.15m
+SIN 0 1.15m 260 0 0 0
X_U1B         N07633 N01994 VCC -VCC N02102 TL072/301/TI
R_R3         0 N01994 R_R3 1k TC=0,0 
.model        R_R3 RES R=1 DEV=0.1% TC1=0 TC2=0
R_R4         N01994 N02102 R_R4 48.7k TC=0,0 
.model        R_R4 RES R=1 DEV=1% TC1=0 TC2=0
X_U2A         N02102 N02283 VCC -VCC N02357 TL072/301/TI
R_R5         0 N02283 R_R5 1k TC=0,0 
.model        R_R5 RES R=1 DEV=0.1% TC1=0 TC2=0
R_R6         N02283 N02357 R_R6 48.7k TC=0,0 
.model        R_R6 RES R=1 DEV=1% TC1=0 TC2=0
X_U2B         N02357 N08767 VCC -VCC N03316 TL072/301/TI
X_R9         N03520 N03520 N03316 POT PARAMS: SET={set} VALUE=5k
R_R10         -VCC N12072 R_R10 1k TC=0,0 
.model        R_R10 RES R=1 DEV=0.1% TC1=0 TC2=0
R_R11         N12060 VCC R_R11 1k TC=0,0 
.model        R_R11 RES R=1 DEV=0.1% TC1=0 TC2=0
R_R16         0 N12084  5 TC=0,0 
C_C1         N00912 N07274  10n  TC=0,0 
R_R1         0 N07274 R_R1 61.9k TC=0,0 
.model        R_R1 RES R=1 DEV=1% TC1=0 TC2=0
X_U3A         N07274 N07398 VCC -VCC N07398 TL072/301/TI
R_R2         N07398 N07518 R_R2 1.37k TC=0,0 
.model        R_R2 RES R=1 DEV=1% TC1=0 TC2=0
C_C2         0 N07518  10n  TC=0,0 
X_U3B         N07518 N07633 VCC -VCC N07633 TL072/301/TI
R_R7         N08767 N03520 R_R7 1k TC=0,0 
.model        R_R7 RES R=1 DEV=0.1% TC1=0 TC2=0
R_R8         0 N08767 R_R8 1k TC=0,0 
.model        R_R8 RES R=1 DEV=0.1% TC1=0 TC2=0
X_Q3         VCC N12060 N12084 TIP122
X_Q4         -VCC N12072 N12084 TIP127
D_D8         N11944 N11952 D1N914 
D_D9         N12060 N11944 D1N914 
D_D10         N11952 N12027 D1N914 
D_D11         N12027 N12072 D1N914 
X_U4A         N03316 N11952 VCC -VCC N11952 TL072/301/TI
.PARAM  set=0.5

**** RESUMING simualareac.cir ****
.END

**** 05/21/25 10:35:12 ***** PSpice 24.1.0 (17 April 2025) **** ID# 0 ********

 ** Profile: "SCHEMATIC1-simualareac"  [ c:\users\rares\appdata\roaming\spb_data\cdssetup\workspace\projects\proiectcad\proiectcad-ps


 ****     Diode MODEL PARAMETERS


******************************************************************************




               D1N914          X_U1B.DX        X_U2A.DX        X_U2B.DX        
          IS  168.100000E-21  800.000000E-18  800.000000E-18  800.000000E-18 
         ISR  100.000000E-12                                                 
          BV  100                                                            
         IBV  100.000000E-06                                                 
          RS     .1                                                          
          TT   11.540000E-09                                                 
         CJO    4.000000E-12                                                 
          VJ     .75                                                         
           M     .3333                                                       


               X_U3A.DX        X_U3B.DX        X_Q3.Dmodel     X_Q4.Dmodel     
          IS  800.000000E-18  800.000000E-18    2.134100E-12   10.000000E-15 
           N                                    3.4748                       
         ISR                                  100.000000E-12                 
          BV                                  120                            
         IBV                                    1.000000E-06                 
          RS                                    1.000000E-03    1.000000E-03 
          TT                                    5.000000E-09                 
         CJO                                    1.000000E-12   10.000000E-21 
          VJ                                     .75                         
           M                                     .3333                       


               X_U4A.DX        
          IS  800.000000E-18 


**** 05/21/25 10:35:12 ***** PSpice 24.1.0 (17 April 2025) **** ID# 0 ********

 ** Profile: "SCHEMATIC1-simualareac"  [ c:\users\rares\appdata\roaming\spb_data\cdssetup\workspace\projects\proiectcad\proiectcad-ps


 ****     BJT MODEL PARAMETERS


******************************************************************************




               X_Q3.Q1model    X_Q3.Q2model    X_Q4.Q1model    X_Q4.Q2model    
               NPN             NPN             PNP             PNP             
       LEVEL    1               1               1               1            
          IS  209.200000E-15  209.200000E-15   57.280000E-15   57.280000E-15 
          BF    2.997000E+03    2.997000E+03    2.997000E+03    2.997000E+03 
          NF    1               1               1               1            
         VAF  100             100             100             100            
         IKF     .07177          .07177         1.511           1.511        
         ISE    4.744000E-12    4.744000E-12    1.049000E-12    1.049000E-12 
          NE    1.447           1.447           1.386           1.386        
          BR   36.63           36.63             .1021           .1021       
          NR    1               1               1               1            
         VAR  100             100             100             100            
         IKR     .4299           .4299          4.319           4.319        
         ISC    1.630000E-12    1.630000E-12    9.571000E-12    9.571000E-12 
          NC    1.002           1.002           1.517           1.517        
          NK     .5871           .5871           .7332           .7332       
         ISS    0               0               0               0            
          RB   27.3662         27.3662          1.347           1.347        
          RE    0               0               0               0            
          RC    3.26784         3.26784          .1061           .1061       
         CJE  111.800000E-12  111.800000E-12  145.600000E-12  145.600000E-12 
         VJE     .5941           .5941           .9672           .9672       
         MJE     .4082           .4082           .4056           .4056       
         CJC  160.100000E-12    0             232.700000E-12    0            
         VJC     .5399           .5399          1.5             1.5          
         MJC     .1963           .1963           .244            .244        
        XCJC     .9              .9              .9              .9          
         CJS    0               0               0               0            
         VJS     .75             .75             .75             .75         
          TF   18.000000E-09   18.000000E-09    2.100000E-09    2.100000E-09 
         XTF    1               1              10              10            
         VTF   10              10              10              10            
         ITF     .01             .01            1               1            
          TR   12.000000E-06   12.000000E-06   14.000000E-06   14.000000E-06 
          KF    0               0               0               0            
          AF    1               1               1               1            
          CN    2.42            2.42            2.2             2.2          
           D     .87             .87             .52             .52         


**** 05/21/25 10:35:12 ***** PSpice 24.1.0 (17 April 2025) **** ID# 0 ********

 ** Profile: "SCHEMATIC1-simualareac"  [ c:\users\rares\appdata\roaming\spb_data\cdssetup\workspace\projects\proiectcad\proiectcad-ps


 ****     Junction FET MODEL PARAMETERS


******************************************************************************




               X_U1B.JX        X_U2A.JX        X_U2B.JX        X_U3A.JX        
               PJF             PJF             PJF             PJF             
         VTO   -1              -1              -1              -1            
        BETA  270.100000E-06  270.100000E-06  270.100000E-06  270.100000E-06 
          IS   15.000000E-12   15.000000E-12   15.000000E-12   15.000000E-12 


               X_U3B.JX        X_U4A.JX        
               PJF             PJF             
         VTO   -1              -1            
        BETA  270.100000E-06  270.100000E-06 
          IS   15.000000E-12   15.000000E-12 


**** 05/21/25 10:35:12 ***** PSpice 24.1.0 (17 April 2025) **** ID# 0 ********

 ** Profile: "SCHEMATIC1-simualareac"  [ c:\users\rares\appdata\roaming\spb_data\cdssetup\workspace\projects\proiectcad\proiectcad-ps


 ****     Resistor MODEL PARAMETERS


******************************************************************************




               R_R3            R_R4            R_R5            R_R6            
           R    1               1               1               1            


               R_R10           R_R11           R_R1            R_R2            
           R    1               1               1               1            


               R_R7            R_R8            
           R    1               1            


**** 05/21/25 10:35:12 ***** PSpice 24.1.0 (17 April 2025) **** ID# 0 ********

 ** Profile: "SCHEMATIC1-simualareac"  [ c:\users\rares\appdata\roaming\spb_data\cdssetup\workspace\projects\proiectcad\proiectcad-ps


 ****     SMALL SIGNAL BIAS SOLUTION       TEMPERATURE =   27.000 DEG C


******************************************************************************



 NODE   VOLTAGE     NODE   VOLTAGE     NODE   VOLTAGE     NODE   VOLTAGE


(  VCC)   15.0000  ( -VCC)  -15.0000  (N00912)    0.0000 (N01994) 30.05E-06     

(N02102)     .0015 (N02283)     .0015 (N02357)     .0749 (N03316)     .3370     

(N03520)     .1498 (N07274)-2.789E-06 (N07398) 8.182E-06 (N07518) 8.120E-06     

(N07633) 19.09E-06 (N08767)     .0749 (N11944)    1.3032 (N11952)     .3370     

(N12027)    -.6292 (N12060)    2.2694 (N12072)   -1.5953 (N12084)     .5696     

(X_Q3.4)    1.4994 (X_Q4.4)    -.8256 (X_U1B.6)-213.1E-09                       

(X_U1B.7)     .0015                   (X_U1B.8)     .0015                       

(X_U1B.9)    0.0000                   (X_U2A.6)-10.67E-06                       

(X_U2A.7)     .0751                   (X_U2A.8)     .0751                       

(X_U2A.9)    0.0000                   (X_U2B.6)-50.91E-06                       

(X_U2B.7)     .3482                   (X_U2B.8)     .3482                       

(X_U2B.9)    0.0000                   (X_U3A.6)-1.162E-09                       

(X_U3A.7) 8.195E-06                   (X_U3A.8) 8.195E-06                       

(X_U3A.9)    0.0000                   (X_U3B.6)-2.708E-09                       

(X_U3B.7) 19.11E-06                   (X_U3B.8) 19.11E-06                       

(X_U3B.9)    0.0000                   (X_U4A.6)-46.56E-06                       

(X_U4A.7)     .3329                   (X_U4A.8)     .3329                       

(X_U4A.9)    0.0000                   (X_U1B.10)    -.3986                      

(X_U1B.11)  -14.6550                  (X_U1B.12)  -14.6550                      

(X_U1B.53)   12.8000                  (X_U1B.54)  -12.8000                      

(X_U1B.90) 30.14E-06                  (X_U1B.91)   25.0000                      

(X_U1B.92)  -25.0000                  (X_U1B.99)    0.0000                      

(X_U2A.10)    -.3971                  (X_U2A.11)  -14.6550                      

(X_U2A.12)  -14.6550                  (X_U2A.53)   12.8000                      

(X_U2A.54)  -12.8000                  (X_U2A.90)     .0015                      

(X_U2A.91)   25.0000                  (X_U2A.92)  -25.0000                      

(X_U2A.99)    0.0000                  (X_U2B.10)    -.3238                      

(X_U2B.11)  -14.6550                  (X_U2B.12)  -14.6550                      

(X_U2B.53)   12.8000                  (X_U2B.54)  -12.8000                      

(X_U2B.90)     .0749                  (X_U2B.91)   25.0000                      

(X_U2B.92)  -25.0000                  (X_U2B.99)    0.0000                      

(X_U3A.10)    -.3986                  (X_U3A.11)  -14.6550                      

(X_U3A.12)  -14.6550                  (X_U3A.53)   12.8000                      

(X_U3A.54)  -12.8000                  (X_U3A.90) 90.11E-09                      

(X_U3A.91)   25.0000                  (X_U3A.92)  -25.0000                      

(X_U3A.99)    0.0000                  (X_U3B.10)    -.3986                      

(X_U3B.11)  -14.6550                  (X_U3B.12)  -14.6550                      

(X_U3B.53)   12.8000                  (X_U3B.54)  -12.8000                      

(X_U3B.90) 89.75E-09                  (X_U3B.91)   25.0000                      

(X_U3B.92)  -25.0000                  (X_U3B.99)    0.0000                      

(X_U4A.10)    -.0621                  (X_U4A.11)  -14.6550                      

(X_U4A.12)  -14.6550                  (X_U4A.53)   12.8000                      

(X_U4A.54)  -12.8000                  (X_U4A.90)    -.0270                      

(X_U4A.91)   25.0000                  (X_U4A.92)  -25.0000                      

(X_U4A.99)    0.0000                  




    VOLTAGE SOURCE CURRENTS
    NAME         CURRENT

    V_V2        -5.690E+00
    V_V3         5.576E+00
    V_V4         0.000E+00
    X_U1B.VB    -2.131E-12
    X_U1B.VC     1.280E-11
    X_U1B.VE     1.280E-11
    X_U1B.VLIM   3.014E-08
    X_U1B.VLP   -2.500E-11
    X_U1B.VLN   -2.500E-11
    X_U2A.VB    -1.067E-10
    X_U2A.VC     1.273E-11
    X_U2A.VE     1.288E-11
    X_U2A.VLIM   1.507E-06
    X_U2A.VLP   -2.500E-11
    X_U2A.VLN   -2.500E-11
    X_U2B.VB    -5.091E-10
    X_U2B.VC     1.246E-11
    X_U2B.VE     1.314E-11
    X_U2B.VLIM   7.488E-05
    X_U2B.VLP   -2.493E-11
    X_U2B.VLN   -2.508E-11
    X_U3A.VB    -1.162E-14
    X_U3A.VC     1.280E-11
    X_U3A.VE     1.280E-11
    X_U3A.VLIM   9.011E-11
    X_U3A.VLP   -2.500E-11
    X_U3A.VLN   -2.500E-11
    X_U3B.VB    -2.708E-14
    X_U3B.VC     1.280E-11
    X_U3B.VE     1.280E-11
    X_U3B.VLIM   8.975E-11
    X_U3B.VLP   -2.500E-11
    X_U3B.VLN   -2.500E-11
    X_U4A.VB    -4.656E-10
    X_U4A.VC     1.246E-11
    X_U4A.VE     1.314E-11
    X_U4A.VLIM  -2.700E-05
    X_U4A.VLP   -2.503E-11
    X_U4A.VLN   -2.497E-11

    TOTAL POWER DISSIPATION   1.69E+02  WATTS



          JOB CONCLUDED

**** 05/21/25 10:35:12 ***** PSpice 24.1.0 (17 April 2025) **** ID# 0 ********

 ** Profile: "SCHEMATIC1-simualareac"  [ c:\users\rares\appdata\roaming\spb_data\cdssetup\workspace\projects\proiectcad\proiectcad-ps


 ****     JOB STATISTICS SUMMARY


******************************************************************************



  Total job time (using Solver 1)   =         .08
